1



                                 *********************************************

                                    NUMERICAL ELECTROMAGNETICS CODE (NEC-2D)

                                 *********************************************




                                     - - - - COMMENTS - - - -


                          Dipole 900 Free space                                                        




                                 - - - STRUCTURE SPECIFICATION - - -

                                     COORDINATES MUST BE INPUT IN
                                     METERS OR BE SCALED TO METERS
                                     BEFORE STRUCTURE INPUT IS ENDED


  WIRE                                                                               NO. OF    FIRST  LAST     TAG
  NO.        X1         Y1         Z1          X2         Y2         Z2      RADIUS   SEG.     SEG.   SEG.     NO.
     1   -0.07450    0.00000    0.01500     0.07450    0.00000    0.01500    0.00180     21        1    21       1

   GROUND PLANE SPECIFIED.

   WHERE WIRE ENDS TOUCH GROUND, CURRENT WILL BE INTERPOLATED TO IMAGE IN GROUND PLANE.


   TOTAL SEGMENTS USED=   21     NO. SEG. IN A SYMMETRIC CELL=   21     SYMMETRY FLAG=  0


         - MULTIPLE WIRE JUNCTIONS -
 JUNCTION    SEGMENTS  (- FOR END 1, + FOR END 2)
  NONE




                                 - - - - SEGMENTATION DATA - - - -

                                        COORDINATES IN METERS

                         I+ AND I- INDICATE THE SEGMENTS BEFORE AND AFTER I


  SEG.   COORDINATES OF SEG. CENTER     SEG.     ORIENTATION ANGLES    WIRE    CONNECTION DATA   TAG
  NO.       X         Y         Z       LENGTH     ALPHA     BETA      RADIUS    I-   I    I+    NO.
     1  -0.07095   0.00000   0.01500   0.00710    0.00000   0.00000   0.00180     0    1    2      1
     2  -0.06386   0.00000   0.01500   0.00710    0.00000   0.00000   0.00180     1    2    3      1
     3  -0.05676   0.00000   0.01500   0.00710    0.00000   0.00000   0.00180     2    3    4      1
     4  -0.04967   0.00000   0.01500   0.00710    0.00000   0.00000   0.00180     3    4    5      1
     5  -0.04257   0.00000   0.01500   0.00710    0.00000   0.00000   0.00180     4    5    6      1
     6  -0.03548   0.00000   0.01500   0.00710    0.00000   0.00000   0.00180     5    6    7      1
     7  -0.02838   0.00000   0.01500   0.00710    0.00000   0.00000   0.00180     6    7    8      1
     8  -0.02129   0.00000   0.01500   0.00710    0.00000   0.00000   0.00180     7    8    9      1
     9  -0.01419   0.00000   0.01500   0.00710    0.00000   0.00000   0.00180     8    9   10      1
    10  -0.00710   0.00000   0.01500   0.00710    0.00000   0.00000   0.00180     9   10   11      1
    11   0.00000   0.00000   0.01500   0.00710    0.00000   0.00000   0.00180    10   11   12      1
    12   0.00710   0.00000   0.01500   0.00710    0.00000   0.00000   0.00180    11   12   13      1
    13   0.01419   0.00000   0.01500   0.00710    0.00000   0.00000   0.00180    12   13   14      1
    14   0.02129   0.00000   0.01500   0.00710    0.00000   0.00000   0.00180    13   14   15      1
    15   0.02838   0.00000   0.01500   0.00710    0.00000   0.00000   0.00180    14   15   16      1
    16   0.03548   0.00000   0.01500   0.00710    0.00000   0.00000   0.00180    15   16   17      1
    17   0.04257   0.00000   0.01500   0.00710    0.00000   0.00000   0.00180    16   17   18      1
    18   0.04967   0.00000   0.01500   0.00710    0.00000   0.00000   0.00180    17   18   19      1
    19   0.05676   0.00000   0.01500   0.00710    0.00000   0.00000   0.00180    18   19   20      1
    20   0.06386   0.00000   0.01500   0.00710    0.00000   0.00000   0.00180    19   20   21      1
    21   0.07095   0.00000   0.01500   0.00710    0.00000   0.00000   0.00180    20   21    0      1






 ***** DATA CARD NO.  1   GN   2     0     0     0  4.15000E+01  9.70000E-01  4.15000E+01  9.70000E-01  1.00000E+00  0.00000E+00
 ***** DATA CARD NO.  2   EK   0     0     0     0  0.00000E+00  0.00000E+00  0.00000E+00  0.00000E+00  0.00000E+00  0.00000E+00
 ***** DATA CARD NO.  3   EX   0     1    11     0  1.00000E+00  0.00000E+00  0.00000E+00  0.00000E+00  0.00000E+00  0.00000E+00
 ***** DATA CARD NO.  4   LD   0     1    11    11  5.00000E+01  0.00000E+00  0.00000E+00  0.00000E+00  0.00000E+00  0.00000E+00
 ***** DATA CARD NO.  5   FR   0   100     0     0  5.00000E+02  1.00000E+01  0.00000E+00  0.00000E+00  0.00000E+00  0.00000E+00
 ***** DATA CARD NO.  6   XQ   0     0     0     0  0.00000E+00  0.00000E+00  0.00000E+00  0.00000E+00  0.00000E+00  0.00000E+00




                                 - - - - - - FREQUENCY - - - - - -

                                    FREQUENCY= 5.0000E+02 MHZ
                                    WAVELENGTH= 5.9958E-01 METERS




                    APPROXIMATE INTEGRATION EMPLOYED FOR SEGMENTS MORE THAN   1.000 WAVELENGTHS APART

                    THE EXTENDED THIN WIRE KERNEL WILL BE USED



                               - - - STRUCTURE IMPEDANCE LOADING - - -


       LOCATION          RESISTANCE   INDUCTANCE  CAPACITANCE       IMPEDANCE (OHMS)     CONDUCTIVITY    TYPE
    ITAG FROM THRU          OHMS        HENRYS       FARADS        REAL      IMAGINARY    MHOS/METER

       1   11   11      5.0000E+01                                                                     SERIES 



                                  - - - ANTENNA ENVIRONMENT - - -

                                        FINITE GROUND.  SOMMERFELD SOLUTION
                                        RELATIVE DIELECTRIC CONST.= 41.500
                                        CONDUCTIVITY= 9.700E-01 MHOS/METER
                                        COMPLEX DIELECTRIC CONSTANT= 4.15000E+01-3.48717E+01



                                - - - MATRIX TIMING - - -

                        FILL=    0.006 SEC.,  FACTOR=    0.000 SEC.



                                          - - - ANTENNA INPUT PARAMETERS - - -

   TAG   SEG.    VOLTAGE (VOLTS)         CURRENT (AMPS)         IMPEDANCE (OHMS)        ADMITTANCE (MHOS)      POWER
   NO.   NO.    REAL        IMAG.       REAL        IMAG.       REAL        IMAG.       REAL        IMAG.     (WATTS)
     1    11 1.00000E+00 0.00000E+00 9.20741E-04 3.58630E-03 6.71616E+01-2.61596E+02 9.20741E-04 3.58630E-03 4.60370E-04



                             - - - CURRENTS AND LOCATION - - -

                                 DISTANCES IN WAVELENGTHS


  SEG.  TAG    COORD. OF SEG. CENTER     SEG.            - - - CURRENT (AMPS) - - -
  NO.   NO.     X        Y        Z      LENGTH     REAL        IMAG.       MAG.        PHASE
     1    1  -0.1183   0.0000   0.0250  0.01183   1.0207E-04  3.4993E-04  3.6451E-04   73.738
     2    1  -0.1065   0.0000   0.0250  0.01183   2.1432E-04  7.3864E-04  7.6910E-04   73.820
     3    1  -0.0947   0.0000   0.0250  0.01183   3.1235E-04  1.0834E-03  1.1275E-03   73.917
     4    1  -0.0828   0.0000   0.0250  0.01183   4.0464E-04  1.4140E-03  1.4708E-03   74.031
     5    1  -0.0710   0.0000   0.0250  0.01183   4.9163E-04  1.7331E-03  1.8014E-03   74.163
     6    1  -0.0592   0.0000   0.0250  0.01183   5.7324E-04  2.0414E-03  2.1203E-03   74.315
     7    1  -0.0473   0.0000   0.0250  0.01183   6.4920E-04  2.3393E-03  2.4277E-03   74.489
     8    1  -0.0355   0.0000   0.0250  0.01183   7.1946E-04  2.6281E-03  2.7248E-03   74.690
     9    1  -0.0237   0.0000   0.0250  0.01183   7.8449E-04  2.9120E-03  3.0158E-03   74.923
    10    1  -0.0118   0.0000   0.0250  0.01183   8.5037E-04  3.2246E-03  3.3349E-03   75.227
    11    1   0.0000   0.0000   0.0250  0.01183   9.2074E-04  3.5863E-03  3.7026E-03   75.601
    12    1   0.0118   0.0000   0.0250  0.01183   8.5037E-04  3.2246E-03  3.3349E-03   75.227
    13    1   0.0237   0.0000   0.0250  0.01183   7.8449E-04  2.9120E-03  3.0158E-03   74.923
    14    1   0.0355   0.0000   0.0250  0.01183   7.1946E-04  2.6281E-03  2.7248E-03   74.690
    15    1   0.0473   0.0000   0.0250  0.01183   6.4920E-04  2.3393E-03  2.4277E-03   74.489
    16    1   0.0592   0.0000   0.0250  0.01183   5.7324E-04  2.0414E-03  2.1203E-03   74.315
    17    1   0.0710   0.0000   0.0250  0.01183   4.9163E-04  1.7331E-03  1.8014E-03   74.163
    18    1   0.0828   0.0000   0.0250  0.01183   4.0464E-04  1.4140E-03  1.4708E-03   74.031
    19    1   0.0947   0.0000   0.0250  0.01183   3.1235E-04  1.0834E-03  1.1275E-03   73.917
    20    1   0.1065   0.0000   0.0250  0.01183   2.1432E-04  7.3864E-04  7.6910E-04   73.820
    21    1   0.1183   0.0000   0.0250  0.01183   1.0207E-04  3.4993E-04  3.6451E-04   73.738



                                        - - - POWER BUDGET - - -

                                           INPUT POWER   = 4.6037E-04 WATTS
                                           RADIATED POWER= 1.1764E-04 WATTS
                                           STRUCTURE LOSS= 3.4273E-04 WATTS
                                           NETWORK LOSS  = 0.0000E+00 WATTS
                                           EFFICIENCY    =  25.55 PERCENT




                                 - - - - - - FREQUENCY - - - - - -

                                    FREQUENCY= 5.1000E+02 MHZ
                                    WAVELENGTH= 5.8783E-01 METERS




                    APPROXIMATE INTEGRATION EMPLOYED FOR SEGMENTS MORE THAN   1.000 WAVELENGTHS APART

                    THE EXTENDED THIN WIRE KERNEL WILL BE USED



                               - - - STRUCTURE IMPEDANCE LOADING - - -


       LOCATION          RESISTANCE   INDUCTANCE  CAPACITANCE       IMPEDANCE (OHMS)     CONDUCTIVITY    TYPE
    ITAG FROM THRU          OHMS        HENRYS       FARADS        REAL      IMAGINARY    MHOS/METER

       1   11   11      5.0000E+01                                                                     SERIES 



                                  - - - ANTENNA ENVIRONMENT - - -

                                        FINITE GROUND.  SOMMERFELD SOLUTION
                                        RELATIVE DIELECTRIC CONST.= 41.500
                                        CONDUCTIVITY= 9.700E-01 MHOS/METER
                                        COMPLEX DIELECTRIC CONSTANT= 4.15000E+01-3.41879E+01



                                - - - MATRIX TIMING - - -

                        FILL=    0.007 SEC.,  FACTOR=    0.000 SEC.



                                          - - - ANTENNA INPUT PARAMETERS - - -

   TAG   SEG.    VOLTAGE (VOLTS)         CURRENT (AMPS)         IMPEDANCE (OHMS)        ADMITTANCE (MHOS)      POWER
   NO.   NO.    REAL        IMAG.       REAL        IMAG.       REAL        IMAG.       REAL        IMAG.     (WATTS)
     1    11 1.00000E+00 0.00000E+00 9.87612E-04 3.69339E-03 6.75683E+01-2.52686E+02 9.87612E-04 3.69339E-03 4.93806E-04



                             - - - CURRENTS AND LOCATION - - -

                                 DISTANCES IN WAVELENGTHS


  SEG.  TAG    COORD. OF SEG. CENTER     SEG.            - - - CURRENT (AMPS) - - -
  NO.   NO.     X        Y        Z      LENGTH     REAL        IMAG.       MAG.        PHASE
     1    1  -0.1207   0.0000   0.0255  0.01207   1.1009E-04  3.6239E-04  3.7874E-04   73.103
     2    1  -0.1086   0.0000   0.0255  0.01207   2.3117E-04  7.6489E-04  7.9906E-04   73.184
     3    1  -0.0966   0.0000   0.0255  0.01207   3.3692E-04  1.1217E-03  1.1712E-03   73.282
     4    1  -0.0845   0.0000   0.0255  0.01207   4.3639E-04  1.4636E-03  1.5273E-03   73.398
     5    1  -0.0724   0.0000   0.0255  0.01207   5.3003E-04  1.7933E-03  1.8700E-03   73.534
     6    1  -0.0604   0.0000   0.0255  0.01207   6.1774E-04  2.1114E-03  2.1999E-03   73.692
     7    1  -0.0483   0.0000   0.0255  0.01207   6.9922E-04  2.4182E-03  2.5172E-03   73.873
     8    1  -0.0362   0.0000   0.0255  0.01207   7.7437E-04  2.7150E-03  2.8233E-03   74.081
     9    1  -0.0241   0.0000   0.0255  0.01207   8.4367E-04  3.0060E-03  3.1221E-03   74.323
    10    1  -0.0121   0.0000   0.0255  0.01207   9.1348E-04  3.3253E-03  3.4485E-03   74.639
    11    1   0.0000   0.0000   0.0255  0.01207   9.8761E-04  3.6934E-03  3.8232E-03   75.029
    12    1   0.0121   0.0000   0.0255  0.01207   9.1349E-04  3.3253E-03  3.4485E-03   74.639
    13    1   0.0241   0.0000   0.0255  0.01207   8.4369E-04  3.0060E-03  3.1222E-03   74.322
    14    1   0.0362   0.0000   0.0255  0.01207   7.7441E-04  2.7151E-03  2.8233E-03   74.080
    15    1   0.0483   0.0000   0.0255  0.01207   6.9927E-04  2.4182E-03  2.5173E-03   73.872
    16    1   0.0604   0.0000   0.0255  0.01207   6.1781E-04  2.1114E-03  2.1999E-03   73.690
    17    1   0.0724   0.0000   0.0255  0.01207   5.3011E-04  1.7933E-03  1.8700E-03   73.532
    18    1   0.0845   0.0000   0.0255  0.01207   4.3648E-04  1.4637E-03  1.5274E-03   73.395
    19    1   0.0966   0.0000   0.0255  0.01207   3.3703E-04  1.1218E-03  1.1713E-03   73.277
    20    1   0.1086   0.0000   0.0255  0.01207   2.3131E-04  7.6497E-04  7.9917E-04   73.176
    21    1   0.1207   0.0000   0.0255  0.01207   1.1018E-04  3.6244E-04  3.7882E-04   73.091



                                        - - - POWER BUDGET - - -

                                           INPUT POWER   = 4.9381E-04 WATTS
                                           RADIATED POWER= 1.2839E-04 WATTS
                                           STRUCTURE LOSS= 3.6541E-04 WATTS
                                           NETWORK LOSS  = 0.0000E+00 WATTS
                                           EFFICIENCY    =  26.00 PERCENT




                                 - - - - - - FREQUENCY - - - - - -

                                    FREQUENCY= 5.2000E+02 MHZ
                                    WAVELENGTH= 5.7652E-01 METERS




                    APPROXIMATE INTEGRATION EMPLOYED FOR SEGMENTS MORE THAN   1.000 WAVELENGTHS APART

                    THE EXTENDED THIN WIRE KERNEL WILL BE USED



                               - - - STRUCTURE IMPEDANCE LOADING - - -


       LOCATION          RESISTANCE   INDUCTANCE  CAPACITANCE       IMPEDANCE (OHMS)     CONDUCTIVITY    TYPE
    ITAG FROM THRU          OHMS        HENRYS       FARADS        REAL      IMAGINARY    MHOS/METER

       1   11   11      5.0000E+01                                                                     SERIES 



                                  - - - ANTENNA ENVIRONMENT - - -

                                        FINITE GROUND.  SOMMERFELD SOLUTION
                                        RELATIVE DIELECTRIC CONST.= 41.500
                                        CONDUCTIVITY= 9.700E-01 MHOS/METER
                                        COMPLEX DIELECTRIC CONSTANT= 4.15000E+01-3.35305E+01



                                - - - MATRIX TIMING - - -

                        FILL=    0.007 SEC.,  FACTOR=    0.000 SEC.



                                          - - - ANTENNA INPUT PARAMETERS - - -

   TAG   SEG.    VOLTAGE (VOLTS)         CURRENT (AMPS)         IMPEDANCE (OHMS)        ADMITTANCE (MHOS)      POWER
   NO.   NO.    REAL        IMAG.       REAL        IMAG.       REAL        IMAG.       REAL        IMAG.     (WATTS)
     1    11 1.00000E+00 0.00000E+00 1.05952E-03 3.80275E-03 6.79900E+01-2.44024E+02 1.05952E-03 3.80275E-03 5.29760E-04



                             - - - CURRENTS AND LOCATION - - -

                                 DISTANCES IN WAVELENGTHS


  SEG.  TAG    COORD. OF SEG. CENTER     SEG.            - - - CURRENT (AMPS) - - -
  NO.   NO.     X        Y        Z      LENGTH     REAL        IMAG.       MAG.        PHASE
     1    1  -0.1231   0.0000   0.0260  0.01231   1.1885E-04  3.7529E-04  3.9366E-04   72.427
     2    1  -0.1108   0.0000   0.0260  0.01231   2.4954E-04  7.9202E-04  8.3040E-04   72.512
     3    1  -0.0985   0.0000   0.0260  0.01231   3.6361E-04  1.1612E-03  1.2168E-03   72.613
     4    1  -0.0861   0.0000   0.0260  0.01231   4.7081E-04  1.5148E-03  1.5863E-03   72.734
     5    1  -0.0738   0.0000   0.0260  0.01231   5.7162E-04  1.8553E-03  1.9414E-03   72.876
     6    1  -0.0615   0.0000   0.0260  0.01231   6.6590E-04  2.1834E-03  2.2827E-03   73.039
     7    1  -0.0492   0.0000   0.0260  0.01231   7.5330E-04  2.4993E-03  2.6104E-03   73.227
     8    1  -0.0369   0.0000   0.0260  0.01231   8.3368E-04  2.8043E-03  2.9256E-03   73.444
     9    1  -0.0246   0.0000   0.0260  0.01231   9.0751E-04  3.1024E-03  3.2324E-03   73.695
    10    1  -0.0123   0.0000   0.0260  0.01231   9.8147E-04  3.4283E-03  3.5660E-03   74.024
    11    1   0.0000   0.0000   0.0260  0.01231   1.0595E-03  3.8027E-03  3.9476E-03   74.431
    12    1   0.0123   0.0000   0.0260  0.01231   9.8148E-04  3.4283E-03  3.5660E-03   74.024
    13    1   0.0246   0.0000   0.0260  0.01231   9.0754E-04  3.1024E-03  3.2324E-03   73.694
    14    1   0.0369   0.0000   0.0260  0.01231   8.3372E-04  2.8043E-03  2.9256E-03   73.443
    15    1   0.0492   0.0000   0.0260  0.01231   7.5336E-04  2.4993E-03  2.6104E-03   73.226
    16    1   0.0615   0.0000   0.0260  0.01231   6.6597E-04  2.1834E-03  2.2827E-03   73.038
    17    1   0.0738   0.0000   0.0260  0.01231   5.7171E-04  1.8553E-03  1.9414E-03   72.874
    18    1   0.0861   0.0000   0.0260  0.01231   4.7092E-04  1.5149E-03  1.5864E-03   72.731
    19    1   0.0985   0.0000   0.0260  0.01231   3.6374E-04  1.1613E-03  1.2169E-03   72.609
    20    1   0.1108   0.0000   0.0260  0.01231   2.4969E-04  7.9210E-04  8.3052E-04   72.504
    21    1   0.1231   0.0000   0.0260  0.01231   1.1895E-04  3.7535E-04  3.9374E-04   72.416



                                        - - - POWER BUDGET - - -

                                           INPUT POWER   = 5.2976E-04 WATTS
                                           RADIATED POWER= 1.4017E-04 WATTS
                                           STRUCTURE LOSS= 3.8959E-04 WATTS
                                           NETWORK LOSS  = 0.0000E+00 WATTS
                                           EFFICIENCY    =  26.46 PERCENT




                                 - - - - - - FREQUENCY - - - - - -

                                    FREQUENCY= 5.3000E+02 MHZ
                                    WAVELENGTH= 5.6565E-01 METERS




                    APPROXIMATE INTEGRATION EMPLOYED FOR SEGMENTS MORE THAN   1.000 WAVELENGTHS APART

                    THE EXTENDED THIN WIRE KERNEL WILL BE USED



                               - - - STRUCTURE IMPEDANCE LOADING - - -


       LOCATION          RESISTANCE   INDUCTANCE  CAPACITANCE       IMPEDANCE (OHMS)     CONDUCTIVITY    TYPE
    ITAG FROM THRU          OHMS        HENRYS       FARADS        REAL      IMAGINARY    MHOS/METER

       1   11   11      5.0000E+01                                                                     SERIES 



                                  - - - ANTENNA ENVIRONMENT - - -

                                        FINITE GROUND.  SOMMERFELD SOLUTION
                                        RELATIVE DIELECTRIC CONST.= 41.500
                                        CONDUCTIVITY= 9.700E-01 MHOS/METER
                                        COMPLEX DIELECTRIC CONSTANT= 4.15000E+01-3.28978E+01



                                - - - MATRIX TIMING - - -

                        FILL=    0.006 SEC.,  FACTOR=    0.000 SEC.



                                          - - - ANTENNA INPUT PARAMETERS - - -

   TAG   SEG.    VOLTAGE (VOLTS)         CURRENT (AMPS)         IMPEDANCE (OHMS)        ADMITTANCE (MHOS)      POWER
   NO.   NO.    REAL        IMAG.       REAL        IMAG.       REAL        IMAG.       REAL        IMAG.     (WATTS)
     1    11 1.00000E+00 0.00000E+00 1.13678E-03 3.91436E-03 6.84210E+01-2.35600E+02 1.13678E-03 3.91436E-03 5.68389E-04



                             - - - CURRENTS AND LOCATION - - -

                                 DISTANCES IN WAVELENGTHS


  SEG.  TAG    COORD. OF SEG. CENTER     SEG.            - - - CURRENT (AMPS) - - -
