1



                                 *********************************************

                                    NUMERICAL ELECTROMAGNETICS CODE (NEC-2D)

                                 *********************************************




                                     - - - - COMMENTS - - - -


                          TESTRAN.NEC: NEC2 transmission line coupling test.                           




                                 - - - STRUCTURE SPECIFICATION - - -

                                     COORDINATES MUST BE INPUT IN
                                     METERS OR BE SCALED TO METERS
                                     BEFORE STRUCTURE INPUT IS ENDED


  WIRE                                                                               NO. OF    FIRST  LAST     TAG
  NO.        X1         Y1         Z1          X2         Y2         Z2      RADIUS   SEG.     SEG.   SEG.     NO.
     1    0.00000    0.00000   -0.06900     0.00000    0.00000    0.06900    0.00150     21        1    21       1
      THE STRUCTURE HAS BEEN MOVED, MOVE DATA CARD IS -
        0    0  90.00000   0.00000   0.00000   0.10000   0.00000   0.00000   1.00000
     2    0.00000   -0.10000    0.00000     0.00000   -0.10000    0.00390    0.00100      3       22    24       2
     3    0.00000    0.10000    0.00000     0.00000    0.10000    0.00390    0.00100      3       25    27       3
     4    0.00000   -0.10000    0.00000     0.00000    0.00000    0.00000    0.00000     11       28    38       4
         ABOVE WIRE IS TAPERED.  SEG. LENGTH RATIO =  1.40512
                                 RADIUS FROM  0.00100 TO  0.00100
     5    0.00000    0.00000    0.00000     0.00000    0.10000    0.00000    0.00000     11       39    49       5
         ABOVE WIRE IS TAPERED.  SEG. LENGTH RATIO =  0.71169
                                 RADIUS FROM  0.00100 TO  0.00100
      THE STRUCTURE HAS BEEN MOVED, MOVE DATA CARD IS -
        2    1   0.00000   0.00000   0.00000   0.00000   0.00000   0.00390   4.00000

   TOTAL SEGMENTS USED=   71     NO. SEG. IN A SYMMETRIC CELL=   71     SYMMETRY FLAG=  0


         - MULTIPLE WIRE JUNCTIONS -
 JUNCTION    SEGMENTS  (- FOR END 1, + FOR END 2)
  NONE




                                 - - - - SEGMENTATION DATA - - - -

                                        COORDINATES IN METERS

                         I+ AND I- INDICATE THE SEGMENTS BEFORE AND AFTER I


  SEG.   COORDINATES OF SEG. CENTER     SEG.     ORIENTATION ANGLES    WIRE    CONNECTION DATA   TAG
  NO.       X         Y         Z       LENGTH     ALPHA     BETA      RADIUS    I-   I    I+    NO.
     1   0.10000   0.06571   0.00000   0.00657    0.00000 -90.00000   0.00150     0    1    2      1
     2   0.10000   0.05914   0.00000   0.00657    0.00000 -90.00000   0.00150     1    2    3      1
     3   0.10000   0.05257   0.00000   0.00657    0.00000 -90.00000   0.00150     2    3    4      1
     4   0.10000   0.04600   0.00000   0.00657    0.00000 -90.00000   0.00150     3    4    5      1
     5   0.10000   0.03943   0.00000   0.00657    0.00000 -90.00000   0.00150     4    5    6      1
     6   0.10000   0.03286   0.00000   0.00657    0.00000 -90.00000   0.00150     5    6    7      1
     7   0.10000   0.02629   0.00000   0.00657    0.00000 -90.00000   0.00150     6    7    8      1
     8   0.10000   0.01971   0.00000   0.00657    0.00000 -90.00000   0.00150     7    8    9      1
     9   0.10000   0.01314   0.00000   0.00657    0.00000 -90.00000   0.00150     8    9   10      1
    10   0.10000   0.00657   0.00000   0.00657    0.00000 -90.00000   0.00150     9   10   11      1
    11   0.10000   0.00000   0.00000   0.00657    0.00000 -90.00000   0.00150    10   11   12      1
    12   0.10000  -0.00657   0.00000   0.00657    0.00000 -90.00000   0.00150    11   12   13      1
    13   0.10000  -0.01314   0.00000   0.00657    0.00000 -90.00000   0.00150    12   13   14      1
    14   0.10000  -0.01971   0.00000   0.00657    0.00000 -90.00000   0.00150    13   14   15      1
    15   0.10000  -0.02629   0.00000   0.00657    0.00000 -90.00000   0.00150    14   15   16      1
    16   0.10000  -0.03286   0.00000   0.00657    0.00000 -90.00000   0.00150    15   16   17      1
    17   0.10000  -0.03943   0.00000   0.00657    0.00000 -90.00000   0.00150    16   17   18      1
    18   0.10000  -0.04600   0.00000   0.00657    0.00000 -90.00000   0.00150    17   18   19      1
    19   0.10000  -0.05257   0.00000   0.00657    0.00000 -90.00000   0.00150    18   19   20      1
    20   0.10000  -0.05914   0.00000   0.00657    0.00000 -90.00000   0.00150    19   20   21      1
    21   0.10000  -0.06571   0.00000   0.00657    0.00000 -90.00000   0.00150    20   21    0      1
    22   0.00000  -0.10000   0.00065   0.00130   90.00000   0.00000   0.00100   -28   22   23      2
    23   0.00000  -0.10000   0.00195   0.00130   90.00000   0.00000   0.00100    22   23   24      2
    24   0.00000  -0.10000   0.00325   0.00130   90.00000   0.00000   0.00100    23   24   50      2
    25   0.00000   0.10000   0.00065   0.00130   90.00000   0.00000   0.00100    49   25   26      3
    26   0.00000   0.10000   0.00195   0.00130   90.00000   0.00000   0.00100    25   26   27      3
    27   0.00000   0.10000   0.00325   0.00130   90.00000   0.00000   0.00100    26   27  -71      3
    28   0.00000  -0.09951   0.00000   0.00098    0.00000  90.00000   0.00100   -22   28   29      4
    29   0.00000  -0.09832   0.00000   0.00138    0.00000  90.00000   0.00100    28   29   30      4
    30   0.00000  -0.09666   0.00000   0.00194    0.00000  90.00000   0.00100    29   30   31      4
    31   0.00000  -0.09432   0.00000   0.00273    0.00000  90.00000   0.00100    30   31   32      4
    32   0.00000  -0.09104   0.00000   0.00384    0.00000  90.00000   0.00100    31   32   33      4
    33   0.00000  -0.08642   0.00000   0.00539    0.00000  90.00000   0.00100    32   33   34      4
    34   0.00000  -0.07994   0.00000   0.00758    0.00000  90.00000   0.00100    33   34   35      4
    35   0.00000  -0.07083   0.00000   0.01065    0.00000  90.00000   0.00100    34   35   36      4
    36   0.00000  -0.05803   0.00000   0.01496    0.00000  90.00000   0.00100    35   36   37      4
    37   0.00000  -0.04004   0.00000   0.02102    0.00000  90.00000   0.00100    36   37   38      4
    38   0.00000  -0.01477   0.00000   0.02953    0.00000  90.00000   0.00100    37   38   39      4
    39   0.00000   0.01477   0.00000   0.02953    0.00000  90.00000   0.00100    38   39   40      5
    40   0.00000   0.04004   0.00000   0.02102    0.00000  90.00000   0.00100    39   40   41      5
    41   0.00000   0.05803   0.00000   0.01496    0.00000  90.00000   0.00100    40   41   42      5
    42   0.00000   0.07083   0.00000   0.01065    0.00000  90.00000   0.00100    41   42   43      5
    43   0.00000   0.07994   0.00000   0.00758    0.00000  90.00000   0.00100    42   43   44      5
    44   0.00000   0.08642   0.00000   0.00539    0.00000  90.00000   0.00100    43   44   45      5
    45   0.00000   0.09104   0.00000   0.00384    0.00000  90.00000   0.00100    44   45   46      5
    46   0.00000   0.09432   0.00000   0.00273    0.00000  90.00000   0.00100    45   46   47      5
    47   0.00000   0.09666   0.00000   0.00194    0.00000  90.00000   0.00100    46   47   48      5
    48   0.00000   0.09832   0.00000   0.00138    0.00000  90.00000   0.00100    47   48   49      5
    49   0.00000   0.09951   0.00000   0.00098    0.00000  90.00000   0.00100    48   49   25      5
    50   0.00000  -0.09951   0.00390   0.00098    0.00000  90.00000   0.00100    24   50   51      6
    51   0.00000  -0.09832   0.00390   0.00138    0.00000  90.00000   0.00100    50   51   52      6
    52   0.00000  -0.09666   0.00390   0.00194    0.00000  90.00000   0.00100    51   52   53      6
    53   0.00000  -0.09432   0.00390   0.00273    0.00000  90.00000   0.00100    52   53   54      6
    54   0.00000  -0.09104   0.00390   0.00384    0.00000  90.00000   0.00100    53   54   55      6
    55   0.00000  -0.08642   0.00390   0.00539    0.00000  90.00000   0.00100    54   55   56      6
    56   0.00000  -0.07994   0.00390   0.00758    0.00000  90.00000   0.00100    55   56   57      6
    57   0.00000  -0.07083   0.00390   0.01065    0.00000  90.00000   0.00100    56   57   58      6
    58   0.00000  -0.05803   0.00390   0.01496    0.00000  90.00000   0.00100    57   58   59      6
    59   0.00000  -0.04004   0.00390   0.02102    0.00000  90.00000   0.00100    58   59   60      6
    60   0.00000  -0.01477   0.00390   0.02953    0.00000  90.00000   0.00100    59   60   61      6
    61   0.00000   0.01477   0.00390   0.02953    0.00000  90.00000   0.00100    60   61   62      7
    62   0.00000   0.04004   0.00390   0.02102    0.00000  90.00000   0.00100    61   62   63      7
    63   0.00000   0.05803   0.00390   0.01496    0.00000  90.00000   0.00100    62   63   64      7
    64   0.00000   0.07083   0.00390   0.01065    0.00000  90.00000   0.00100    63   64   65      7
    65   0.00000   0.07994   0.00390   0.00758    0.00000  90.00000   0.00100    64   65   66      7
    66   0.00000   0.08642   0.00390   0.00539    0.00000  90.00000   0.00100    65   66   67      7
    67   0.00000   0.09104   0.00390   0.00384    0.00000  90.00000   0.00100    66   67   68      7
    68   0.00000   0.09432   0.00390   0.00273    0.00000  90.00000   0.00100    67   68   69      7
    69   0.00000   0.09666   0.00390   0.00194    0.00000  90.00000   0.00100    68   69   70      7
    70   0.00000   0.09832   0.00390   0.00138    0.00000  90.00000   0.00100    69   70   71      7
    71   0.00000   0.09951   0.00390   0.00098    0.00000  90.00000   0.00100    70   71  -27      7






 ***** DATA CARD NO.  1   LD   0     2     2     2  1.20000E+02  0.00000E+00  0.00000E+00  0.00000E+00  0.00000E+00  0.00000E+00
 ***** DATA CARD NO.  2   LD   0     3     2     2  1.20000E+02  0.00000E+00  0.00000E+00  0.00000E+00  0.00000E+00  0.00000E+00
 ***** DATA CARD NO.  3   EX   0     1    11     0  1.00000E+00  0.00000E+00  0.00000E+00  0.00000E+00  0.00000E+00  0.00000E+00
 ***** DATA CARD NO.  4   EK   0     0     0     0  0.00000E+00  0.00000E+00  0.00000E+00  0.00000E+00  0.00000E+00  0.00000E+00
 ***** DATA CARD NO.  5   FR   0     1     0     0  1.00000E+03  0.00000E+00  0.00000E+00  0.00000E+00  0.00000E+00  0.00000E+00
 ***** DATA CARD NO.  6   XQ   0     0     0     0  0.00000E+00  0.00000E+00  0.00000E+00  0.00000E+00  0.00000E+00  0.00000E+00




                                 - - - - - - FREQUENCY - - - - - -

                                    FREQUENCY= 1.0000E+03 MHZ
                                    WAVELENGTH= 2.9979E-01 METERS




                    APPROXIMATE INTEGRATION EMPLOYED FOR SEGMENTS MORE THAN   1.000 WAVELENGTHS APART

                    THE EXTENDED THIN WIRE KERNEL WILL BE USED



                               - - - STRUCTURE IMPEDANCE LOADING - - -


       LOCATION          RESISTANCE   INDUCTANCE  CAPACITANCE       IMPEDANCE (OHMS)     CONDUCTIVITY    TYPE
    ITAG FROM THRU          OHMS        HENRYS       FARADS        REAL      IMAGINARY    MHOS/METER

       2    2    2      1.2000E+02                                                                     SERIES 

       3    2    2      1.2000E+02                                                                     SERIES 



                                  - - - ANTENNA ENVIRONMENT - - -

                                            FREE SPACE



                                - - - MATRIX TIMING - - -

                        FILL=    0.090 SEC.,  FACTOR=    0.010 SEC.



                                          - - - ANTENNA INPUT PARAMETERS - - -

   TAG   SEG.    VOLTAGE (VOLTS)         CURRENT (AMPS)         IMPEDANCE (OHMS)        ADMITTANCE (MHOS)      POWER
   NO.   NO.    REAL        IMAG.       REAL        IMAG.       REAL        IMAG.       REAL        IMAG.     (WATTS)
     1    11 1.00000E+00 0.00000E+00 1.19146E-02 3.52341E-04 8.38572E+01-2.47984E+00 1.19146E-02 3.52341E-04 5.95731E-03



                             - - - CURRENTS AND LOCATION - - -

                                 DISTANCES IN WAVELENGTHS


  SEG.  TAG    COORD. OF SEG. CENTER     SEG.            - - - CURRENT (AMPS) - - -
  NO.   NO.     X        Y        Z      LENGTH     REAL        IMAG.       MAG.        PHASE
     1    1   0.3336   0.2192   0.0000  0.02192   1.7867E-03 -3.6054E-04  1.8227E-03  -11.409
     2    1   0.3336   0.1973   0.0000  0.02192   3.7460E-03 -7.0652E-04  3.8120E-03  -10.681
     3    1   0.3336   0.1754   0.0000  0.02192   5.3824E-03 -9.3990E-04  5.4638E-03   -9.905
     4    1   0.3336   0.1534   0.0000  0.02192   6.8462E-03 -1.0947E-03  6.9331E-03   -9.085
     5    1   0.3336   0.1315   0.0000  0.02192   8.1419E-03 -1.1728E-03  8.2260E-03   -8.197
     6    1   0.3336   0.1096   0.0000  0.02192   9.2636E-03 -1.1734E-03  9.3377E-03   -7.219
     7    1   0.3336   0.0877   0.0000  0.02192   1.0201E-02 -1.0938E-03  1.0259E-02   -6.120
     8    1   0.3336   0.0658   0.0000  0.02192   1.0943E-02 -9.2857E-04  1.0982E-02   -4.850
     9    1   0.3336   0.0438   0.0000  0.02192   1.1480E-02 -6.6729E-04  1.1500E-02   -3.327
    10    1   0.3336   0.0219   0.0000  0.02192   1.1806E-02 -2.4789E-04  1.1808E-02   -1.203
    11    1   0.3336   0.0000   0.0000  0.02192   1.1915E-02  3.5234E-04  1.1920E-02    1.694
    12    1   0.3336  -0.0219   0.0000  0.02192   1.1806E-02 -2.4789E-04  1.1808E-02   -1.203
    13    1   0.3336  -0.0438   0.0000  0.02192   1.1480E-02 -6.6729E-04  1.1500E-02   -3.327
    14    1   0.3336  -0.0658   0.0000  0.02192   1.0943E-02 -9.2857E-04  1.0982E-02   -4.850
    15    1   0.3336  -0.0877   0.0000  0.02192   1.0201E-02 -1.0938E-03  1.0259E-02   -6.120
    16    1   0.3336  -0.1096   0.0000  0.02192   9.2636E-03 -1.1734E-03  9.3377E-03   -7.219
    17    1   0.3336  -0.1315   0.0000  0.02192   8.1419E-03 -1.1728E-03  8.2260E-03   -8.197
    18    1   0.3336  -0.1534   0.0000  0.02192   6.8462E-03 -1.0947E-03  6.9331E-03   -9.085
    19    1   0.3336  -0.1754   0.0000  0.02192   5.3824E-03 -9.3990E-04  5.4638E-03   -9.905
    20    1   0.3336  -0.1973   0.0000  0.02192   3.7460E-03 -7.0652E-04  3.8120E-03  -10.681
    21    1   0.3336  -0.2192   0.0000  0.02192   1.7867E-03 -3.6054E-04  1.8227E-03  -11.409
    22    2   0.0000  -0.3336   0.0022  0.00434   2.1655E-05  2.9791E-05  3.6830E-05   53.986
    23    2   0.0000  -0.3336   0.0065  0.00434   8.4991E-07  1.2380E-06  1.5016E-06   55.529
    24    2   0.0000  -0.3336   0.0108  0.00434  -2.0073E-05 -2.7227E-05  3.3827E-05 -126.399
    25    3   0.0000   0.3336   0.0022  0.00434  -2.1655E-05 -2.9791E-05  3.6830E-05 -126.014
    26    3   0.0000   0.3336   0.0065  0.00434  -8.4991E-07 -1.2380E-06  1.5016E-06 -124.471
    27    3   0.0000   0.3336   0.0108  0.00434   2.0073E-05  2.7227E-05  3.3827E-05   53.601
    28    4   0.0000  -0.3319   0.0000  0.00328  -5.5243E-05 -7.5701E-05  9.3714E-05 -126.120
    29    4   0.0000  -0.3280   0.0000  0.00461  -7.1418E-05 -9.7846E-05  1.2114E-04 -126.126
    30    4   0.0000  -0.3224   0.0000  0.00648  -9.2422E-05 -1.2666E-04  1.5680E-04 -126.117
    31    4   0.0000  -0.3146   0.0000  0.00911  -1.2052E-04 -1.6528E-04  2.0455E-04 -126.099
    32    4   0.0000  -0.3037   0.0000  0.01280  -1.5767E-04 -2.1649E-04  2.6782E-04 -126.066
    33    4   0.0000  -0.2883   0.0000  0.01799  -2.0716E-04 -2.8504E-04  3.5237E-04 -126.009
    34    4   0.0000  -0.2667   0.0000  0.02527  -2.7316E-04 -3.7723E-04  4.6574E-04 -125.909
    35    4   0.0000  -0.2363   0.0000  0.03551  -3.5998E-04 -5.0019E-04  6.1626E-04 -125.741
    36    4   0.0000  -0.1936   0.0000  0.04989  -4.6935E-04 -6.5855E-04  8.0869E-04 -125.478
    37    4   0.0000  -0.1336   0.0000  0.07011  -5.9292E-04 -8.4298E-04  1.0306E-03 -125.121
    38    4   0.0000  -0.0493   0.0000  0.09851  -6.9476E-04 -1.0000E-03  1.2177E-03 -124.790
    39    5   0.0000   0.0493   0.0000  0.09851  -6.9476E-04 -1.0000E-03  1.2177E-03 -124.790
    40    5   0.0000   0.1336   0.0000  0.07011  -5.9292E-04 -8.4298E-04  1.0306E-03 -125.121
    41    5   0.0000   0.1936   0.0000  0.04989  -4.6935E-04 -6.5855E-04  8.0869E-04 -125.478
    42    5   0.0000   0.2363   0.0000  0.03551  -3.5998E-04 -5.0019E-04  6.1626E-04 -125.741
    43    5   0.0000   0.2667   0.0000  0.02527  -2.7316E-04 -3.7723E-04  4.6574E-04 -125.909
    44    5   0.0000   0.2883   0.0000  0.01799  -2.0716E-04 -2.8504E-04  3.5237E-04 -126.009
    45    5   0.0000   0.3037   0.0000  0.01280  -1.5767E-04 -2.1649E-04  2.6782E-04 -126.066
    46    5   0.0000   0.3146   0.0000  0.00911  -1.2052E-04 -1.6528E-04  2.0455E-04 -126.099
    47    5   0.0000   0.3224   0.0000  0.00648  -9.2422E-05 -1.2666E-04  1.5680E-04 -126.117
    48    5   0.0000   0.3280   0.0000  0.00461  -7.1418E-05 -9.7846E-05  1.2114E-04 -126.126
    49    5   0.0000   0.3319   0.0000  0.00328  -5.5243E-05 -7.5701E-05  9.3714E-05 -126.120
    50    6   0.0000  -0.3319   0.0130  0.00328  -5.3769E-05 -7.3028E-05  9.0688E-05 -126.363
    51    6   0.0000  -0.3280   0.0130  0.00461  -7.0019E-05 -9.5100E-05  1.1810E-04 -126.363
    52    6   0.0000  -0.3224   0.0130  0.00648  -9.1145E-05 -1.2381E-04  1.5374E-04 -126.360
    53    6   0.0000  -0.3146   0.0130  0.00911  -1.1942E-04 -1.6227E-04  2.0148E-04 -126.350
    54    6   0.0000  -0.3037   0.0130  0.01280  -1.5682E-04 -2.1326E-04  2.6472E-04 -126.329
    55    6   0.0000  -0.2883   0.0130  0.01799  -2.0668E-04 -2.8151E-04  3.4924E-04 -126.285
    56    6   0.0000  -0.2667   0.0130  0.02527  -2.7321E-04 -3.7328E-04  4.6258E-04 -126.201
    57    6   0.0000  -0.2363   0.0130  0.03551  -3.6080E-04 -4.9566E-04  6.1307E-04 -126.051
    58    6   0.0000  -0.1936   0.0130  0.04989  -4.7125E-04 -6.5325E-04  8.0549E-04 -125.807
    59    6   0.0000  -0.1336   0.0130  0.07011  -5.9619E-04 -8.3678E-04  1.0274E-03 -125.469
    60    6   0.0000  -0.0493   0.0130  0.09851  -6.9927E-04 -9.9305E-04  1.2145E-03 -125.152
    61    7   0.0000   0.0493   0.0130  0.09851  -6.9927E-04 -9.9305E-04  1.2145E-03 -125.152
    62    7   0.0000   0.1336   0.0130  0.07011  -5.9619E-04 -8.3678E-04  1.0274E-03 -125.469
    63    7   0.0000   0.1936   0.0130  0.04989  -4.7125E-04 -6.5325E-04  8.0549E-04 -125.807
    64    7   0.0000   0.2363   0.0130  0.03551  -3.6080E-04 -4.9566E-04  6.1307E-04 -126.051
    65    7   0.0000   0.2667   0.0130  0.02527  -2.7321E-04 -3.7328E-04  4.6258E-04 -126.201
    66    7   0.0000   0.2883   0.0130  0.01799  -2.0668E-04 -2.8151E-04  3.4924E-04 -126.285
    67    7   0.0000   0.3037   0.0130  0.01280  -1.5682E-04 -2.1326E-04  2.6472E-04 -126.329
    68    7   0.0000   0.3146   0.0130  0.00911  -1.1942E-04 -1.6227E-04  2.0148E-04 -126.350
    69    7   0.0000   0.3224   0.0130  0.00648  -9.1145E-05 -1.2381E-04  1.5374E-04 -126.360
    70    7   0.0000   0.3280   0.0130  0.00461  -7.0019E-05 -9.5100E-05  1.1810E-04 -126.363
    71    7   0.0000   0.3319   0.0130  0.00328  -5.3769E-05 -7.3028E-05  9.0688E-05 -126.363



                                        - - - POWER BUDGET - - -

                                           INPUT POWER   = 5.9573E-03 WATTS
                                           RADIATED POWER= 5.9573E-03 WATTS
                                           STRUCTURE LOSS= 2.7059E-10 WATTS
                                           NETWORK LOSS  = 0.0000E+00 WATTS
                                           EFFICIENCY    = 100.00 PERCENT






 ***** DATA CARD NO.  7   EN   0     0     0     0  0.00000E+00  0.00000E+00  0.00000E+00  0.00000E+00  0.00000E+00  0.00000E+00

 RUN TIME =     0.130
