1



                                 *********************************************

                                    NUMERICAL ELECTROMAGNETICS CODE (NEC-2D)

                                 *********************************************




                                     - - - - COMMENTS - - - -


                          TESTRAN.NEC: NEC2 120 Ohm transmission line test.                            




                                 - - - STRUCTURE SPECIFICATION - - -

                                     COORDINATES MUST BE INPUT IN
                                     METERS OR BE SCALED TO METERS
                                     BEFORE STRUCTURE INPUT IS ENDED


  WIRE                                                                               NO. OF    FIRST  LAST     TAG
  NO.        X1         Y1         Z1          X2         Y2         Z2      RADIUS   SEG.     SEG.   SEG.     NO.
     1    0.00000   -0.10000    0.00000     0.00000   -0.10000    0.00390    0.00100      3        1     3       2
     2    0.00000    0.10000    0.00000     0.00000    0.10000    0.00390    0.00100      3        4     6       3
     3    0.00000   -0.10000    0.00000     0.00000    0.00000    0.00000    0.00000     11        7    17       4
         ABOVE WIRE IS TAPERED.  SEG. LENGTH RATIO =  1.40512
                                 RADIUS FROM  0.00100 TO  0.00100
     4    0.00000    0.00000    0.00000     0.00000    0.10000    0.00000    0.00000     11       18    28       5
         ABOVE WIRE IS TAPERED.  SEG. LENGTH RATIO =  0.71169
                                 RADIUS FROM  0.00100 TO  0.00100
      THE STRUCTURE HAS BEEN MOVED, MOVE DATA CARD IS -
        2    1   0.00000   0.00000   0.00000   0.00000   0.00000   0.00390   4.00000

   TOTAL SEGMENTS USED=   50     NO. SEG. IN A SYMMETRIC CELL=   50     SYMMETRY FLAG=  0


         - MULTIPLE WIRE JUNCTIONS -
 JUNCTION    SEGMENTS  (- FOR END 1, + FOR END 2)
  NONE




                                 - - - - SEGMENTATION DATA - - - -

                                        COORDINATES IN METERS

                         I+ AND I- INDICATE THE SEGMENTS BEFORE AND AFTER I


  SEG.   COORDINATES OF SEG. CENTER     SEG.     ORIENTATION ANGLES    WIRE    CONNECTION DATA   TAG
  NO.       X         Y         Z       LENGTH     ALPHA     BETA      RADIUS    I-   I    I+    NO.
     1   0.00000  -0.10000   0.00065   0.00130   90.00000   0.00000   0.00100    -7    1    2      2
     2   0.00000  -0.10000   0.00195   0.00130   90.00000   0.00000   0.00100     1    2    3      2
     3   0.00000  -0.10000   0.00325   0.00130   90.00000   0.00000   0.00100     2    3   29      2
     4   0.00000   0.10000   0.00065   0.00130   90.00000   0.00000   0.00100    28    4    5      3
     5   0.00000   0.10000   0.00195   0.00130   90.00000   0.00000   0.00100     4    5    6      3
     6   0.00000   0.10000   0.00325   0.00130   90.00000   0.00000   0.00100     5    6  -50      3
     7   0.00000  -0.09951   0.00000   0.00098    0.00000  90.00000   0.00100    -1    7    8      4
     8   0.00000  -0.09832   0.00000   0.00138    0.00000  90.00000   0.00100     7    8    9      4
     9   0.00000  -0.09666   0.00000   0.00194    0.00000  90.00000   0.00100     8    9   10      4
    10   0.00000  -0.09432   0.00000   0.00273    0.00000  90.00000   0.00100     9   10   11      4
    11   0.00000  -0.09104   0.00000   0.00384    0.00000  90.00000   0.00100    10   11   12      4
    12   0.00000  -0.08642   0.00000   0.00539    0.00000  90.00000   0.00100    11   12   13      4
    13   0.00000  -0.07994   0.00000   0.00758    0.00000  90.00000   0.00100    12   13   14      4
    14   0.00000  -0.07083   0.00000   0.01065    0.00000  90.00000   0.00100    13   14   15      4
    15   0.00000  -0.05803   0.00000   0.01496    0.00000  90.00000   0.00100    14   15   16      4
    16   0.00000  -0.04004   0.00000   0.02102    0.00000  90.00000   0.00100    15   16   17      4
    17   0.00000  -0.01477   0.00000   0.02953    0.00000  90.00000   0.00100    16   17   18      4
    18   0.00000   0.01477   0.00000   0.02953    0.00000  90.00000   0.00100    17   18   19      5
    19   0.00000   0.04004   0.00000   0.02102    0.00000  90.00000   0.00100    18   19   20      5
    20   0.00000   0.05803   0.00000   0.01496    0.00000  90.00000   0.00100    19   20   21      5
    21   0.00000   0.07083   0.00000   0.01065    0.00000  90.00000   0.00100    20   21   22      5
    22   0.00000   0.07994   0.00000   0.00758    0.00000  90.00000   0.00100    21   22   23      5
    23   0.00000   0.08642   0.00000   0.00539    0.00000  90.00000   0.00100    22   23   24      5
    24   0.00000   0.09104   0.00000   0.00384    0.00000  90.00000   0.00100    23   24   25      5
    25   0.00000   0.09432   0.00000   0.00273    0.00000  90.00000   0.00100    24   25   26      5
    26   0.00000   0.09666   0.00000   0.00194    0.00000  90.00000   0.00100    25   26   27      5
    27   0.00000   0.09832   0.00000   0.00138    0.00000  90.00000   0.00100    26   27   28      5
    28   0.00000   0.09951   0.00000   0.00098    0.00000  90.00000   0.00100    27   28    4      5
    29   0.00000  -0.09951   0.00390   0.00098    0.00000  90.00000   0.00100     3   29   30      6
    30   0.00000  -0.09832   0.00390   0.00138    0.00000  90.00000   0.00100    29   30   31      6
    31   0.00000  -0.09666   0.00390   0.00194    0.00000  90.00000   0.00100    30   31   32      6
    32   0.00000  -0.09432   0.00390   0.00273    0.00000  90.00000   0.00100    31   32   33      6
    33   0.00000  -0.09104   0.00390   0.00384    0.00000  90.00000   0.00100    32   33   34      6
    34   0.00000  -0.08642   0.00390   0.00539    0.00000  90.00000   0.00100    33   34   35      6
    35   0.00000  -0.07994   0.00390   0.00758    0.00000  90.00000   0.00100    34   35   36      6
    36   0.00000  -0.07083   0.00390   0.01065    0.00000  90.00000   0.00100    35   36   37      6
    37   0.00000  -0.05803   0.00390   0.01496    0.00000  90.00000   0.00100    36   37   38      6
    38   0.00000  -0.04004   0.00390   0.02102    0.00000  90.00000   0.00100    37   38   39      6
    39   0.00000  -0.01477   0.00390   0.02953    0.00000  90.00000   0.00100    38   39   40      6
    40   0.00000   0.01477   0.00390   0.02953    0.00000  90.00000   0.00100    39   40   41      7
    41   0.00000   0.04004   0.00390   0.02102    0.00000  90.00000   0.00100    40   41   42      7
    42   0.00000   0.05803   0.00390   0.01496    0.00000  90.00000   0.00100    41   42   43      7
    43   0.00000   0.07083   0.00390   0.01065    0.00000  90.00000   0.00100    42   43   44      7
    44   0.00000   0.07994   0.00390   0.00758    0.00000  90.00000   0.00100    43   44   45      7
    45   0.00000   0.08642   0.00390   0.00539    0.00000  90.00000   0.00100    44   45   46      7
    46   0.00000   0.09104   0.00390   0.00384    0.00000  90.00000   0.00100    45   46   47      7
    47   0.00000   0.09432   0.00390   0.00273    0.00000  90.00000   0.00100    46   47   48      7
    48   0.00000   0.09666   0.00390   0.00194    0.00000  90.00000   0.00100    47   48   49      7
    49   0.00000   0.09832   0.00390   0.00138    0.00000  90.00000   0.00100    48   49   50      7
    50   0.00000   0.09951   0.00390   0.00098    0.00000  90.00000   0.00100    49   50   -6      7






 ***** DATA CARD NO.  1   LD   0     2     2     2  1.20000E+02  0.00000E+00  0.00000E+00  0.00000E+00  0.00000E+00  0.00000E+00
 ***** DATA CARD NO.  2   LD   0     3     2     2  1.20000E+02  0.00000E+00  0.00000E+00  0.00000E+00  0.00000E+00  0.00000E+00
 ***** DATA CARD NO.  3   EX   0     2     2     0  1.00000E+00  0.00000E+00  0.00000E+00  0.00000E+00  0.00000E+00  0.00000E+00
 ***** DATA CARD NO.  4   EK   0     0     0     0  0.00000E+00  0.00000E+00  0.00000E+00  0.00000E+00  0.00000E+00  0.00000E+00
 ***** DATA CARD NO.  5   FR   0     1     0     0  1.00000E+03  0.00000E+00  0.00000E+00  0.00000E+00  0.00000E+00  0.00000E+00
 ***** DATA CARD NO.  6   XQ   0     0     0     0  0.00000E+00  0.00000E+00  0.00000E+00  0.00000E+00  0.00000E+00  0.00000E+00




                                 - - - - - - FREQUENCY - - - - - -

                                    FREQUENCY= 1.0000E+03 MHZ
                                    WAVELENGTH= 2.9979E-01 METERS




                    APPROXIMATE INTEGRATION EMPLOYED FOR SEGMENTS MORE THAN   1.000 WAVELENGTHS APART

                    THE EXTENDED THIN WIRE KERNEL WILL BE USED



                               - - - STRUCTURE IMPEDANCE LOADING - - -


       LOCATION          RESISTANCE   INDUCTANCE  CAPACITANCE       IMPEDANCE (OHMS)     CONDUCTIVITY    TYPE
    ITAG FROM THRU          OHMS        HENRYS       FARADS        REAL      IMAGINARY    MHOS/METER

       2    2    2      1.2000E+02                                                                     SERIES 

       3    2    2      1.2000E+02                                                                     SERIES 



                                  - - - ANTENNA ENVIRONMENT - - -

                                            FREE SPACE



                                - - - MATRIX TIMING - - -

                        FILL=    0.050 SEC.,  FACTOR=    0.000 SEC.



                                          - - - ANTENNA INPUT PARAMETERS - - -

   TAG   SEG.    VOLTAGE (VOLTS)         CURRENT (AMPS)         IMPEDANCE (OHMS)        ADMITTANCE (MHOS)      POWER
   NO.   NO.    REAL        IMAG.       REAL        IMAG.       REAL        IMAG.       REAL        IMAG.     (WATTS)
     2     2 1.00000E+00 0.00000E+00 3.18273E-03-4.48883E-04 3.08067E+02 4.34489E+01 3.18273E-03-4.48883E-04 1.59137E-03



                             - - - CURRENTS AND LOCATION - - -

                                 DISTANCES IN WAVELENGTHS


  SEG.  TAG    COORD. OF SEG. CENTER     SEG.            - - - CURRENT (AMPS) - - -
  NO.   NO.     X        Y        Z      LENGTH     REAL        IMAG.       MAG.        PHASE
     1    2   0.0000  -0.3336   0.0022  0.00434   3.2011E-03 -6.6485E-04  3.2694E-03  -11.733
     2    2   0.0000  -0.3336   0.0065  0.00434   3.1827E-03 -4.4888E-04  3.2142E-03   -8.028
     3    2   0.0000  -0.3336   0.0108  0.00434   3.2011E-03 -6.6485E-04  3.2694E-03  -11.733
     4    3   0.0000   0.3336   0.0022  0.00434   1.8234E-03 -3.5853E-03  4.0224E-03  -63.043
     5    3   0.0000   0.3336   0.0065  0.00434   1.6703E-03 -3.6560E-03  4.0195E-03  -65.445
     6    3   0.0000   0.3336   0.0108  0.00434   1.8234E-03 -3.5853E-03  4.0224E-03  -63.043
     7    4   0.0000  -0.3319   0.0000  0.00328  -3.2048E-03  7.3469E-04  3.2879E-03  167.088
     8    4   0.0000  -0.3280   0.0000  0.00461  -3.2069E-03  7.9432E-04  3.3039E-03  166.089
     9    4   0.0000  -0.3224   0.0000  0.00648  -3.2108E-03  9.2337E-04  3.3409E-03  163.956
    10    4   0.0000  -0.3146   0.0000  0.00911  -3.2101E-03  1.1075E-03  3.3958E-03  160.965
    11    4   0.0000  -0.3037   0.0000  0.01280  -3.1958E-03  1.3581E-03  3.4725E-03  156.976
    12    4   0.0000  -0.2883   0.0000  0.01799  -3.1501E-03  1.6965E-03  3.5779E-03  151.695
    13    4   0.0000  -0.2667   0.0000  0.02527  -3.0361E-03  2.1425E-03  3.7159E-03  144.790
    14    4   0.0000  -0.2363   0.0000  0.03551  -2.7819E-03  2.6993E-03  3.8762E-03  135.863
    15    4   0.0000  -0.1936   0.0000  0.04989  -2.2567E-03  3.3108E-03  4.0068E-03  124.278
    16    4   0.0000  -0.1336   0.0000  0.07011  -1.2568E-03  3.7622E-03  3.9666E-03  108.473
    17    4   0.0000  -0.0493   0.0000  0.09851   4.0866E-04  3.5029E-03  3.5266E-03   83.346
    18    5   0.0000   0.0493   0.0000  0.09851   2.1804E-03  2.0038E-03  2.9613E-03   42.583
    19    5   0.0000   0.1336   0.0000  0.07011   3.0717E-03  9.9813E-05  3.0734E-03    1.861
    20    5   0.0000   0.1936   0.0000  0.04989   3.1982E-03 -1.3043E-03  3.4539E-03  -22.187
    21    5   0.0000   0.2363   0.0000  0.03551   3.0126E-03 -2.2029E-03  3.7321E-03  -36.176
    22    5   0.0000   0.2667   0.0000  0.02527   2.7472E-03 -2.7501E-03  3.8871E-03  -45.030
    23    5   0.0000   0.2883   0.0000  0.01799   2.4960E-03 -3.0799E-03  3.9643E-03  -50.978
    24    5   0.0000   0.3037   0.0000  0.01280   2.2880E-03 -3.2808E-03  3.9998E-03  -55.109
    25    5   0.0000   0.3146   0.0000  0.00911   2.1254E-03 -3.4058E-03  4.0146E-03  -58.033
    26    5   0.0000   0.3224   0.0000  0.00648   2.0018E-03 -3.4859E-03  4.0197E-03  -60.133
    27    5   0.0000   0.3280   0.0000  0.00461   1.9132E-03 -3.5367E-03  4.0210E-03  -61.588
    28    5   0.0000   0.3319   0.0000  0.00328   1.8722E-03 -3.5598E-03  4.0221E-03  -62.259
    29    6   0.0000  -0.3319   0.0130  0.00328   3.2048E-03 -7.3469E-04  3.2879E-03  -12.912
    30    6   0.0000  -0.3280   0.0130  0.00461   3.2069E-03 -7.9432E-04  3.3039E-03  -13.911
    31    6   0.0000  -0.3224   0.0130  0.00648   3.2108E-03 -9.2337E-04  3.3409E-03  -16.044
    32    6   0.0000  -0.3146   0.0130  0.00911   3.2101E-03 -1.1075E-03  3.3958E-03  -19.035
    33    6   0.0000  -0.3037   0.0130  0.01280   3.1958E-03 -1.3581E-03  3.4725E-03  -23.024
    34    6   0.0000  -0.2883   0.0130  0.01799   3.1501E-03 -1.6965E-03  3.5779E-03  -28.305
    35    6   0.0000  -0.2667   0.0130  0.02527   3.0361E-03 -2.1425E-03  3.7159E-03  -35.210
    36    6   0.0000  -0.2363   0.0130  0.03551   2.7819E-03 -2.6993E-03  3.8762E-03  -44.137
    37    6   0.0000  -0.1936   0.0130  0.04989   2.2567E-03 -3.3108E-03  4.0068E-03  -55.722
    38    6   0.0000  -0.1336   0.0130  0.07011   1.2568E-03 -3.7622E-03  3.9666E-03  -71.527
    39    6   0.0000  -0.0493   0.0130  0.09851  -4.0866E-04 -3.5029E-03  3.5266E-03  -96.654
    40    7   0.0000   0.0493   0.0130  0.09851  -2.1804E-03 -2.0038E-03  2.9613E-03 -137.417
    41    7   0.0000   0.1336   0.0130  0.07011  -3.0717E-03 -9.9813E-05  3.0734E-03 -178.139
    42    7   0.0000   0.1936   0.0130  0.04989  -3.1982E-03  1.3043E-03  3.4539E-03  157.813
    43    7   0.0000   0.2363   0.0130  0.03551  -3.0126E-03  2.2029E-03  3.7321E-03  143.824
    44    7   0.0000   0.2667   0.0130  0.02527  -2.7472E-03  2.7501E-03  3.8871E-03  134.970
    45    7   0.0000   0.2883   0.0130  0.01799  -2.4960E-03  3.0799E-03  3.9643E-03  129.022
    46    7   0.0000   0.3037   0.0130  0.01280  -2.2880E-03  3.2808E-03  3.9998E-03  124.891
    47    7   0.0000   0.3146   0.0130  0.00911  -2.1254E-03  3.4058E-03  4.0146E-03  121.967
    48    7   0.0000   0.3224   0.0130  0.00648  -2.0018E-03  3.4859E-03  4.0197E-03  119.867
    49    7   0.0000   0.3280   0.0130  0.00461  -1.9132E-03  3.5367E-03  4.0210E-03  118.412
    50    7   0.0000   0.3319   0.0130  0.00328  -1.8722E-03  3.5598E-03  4.0221E-03  117.741



                                        - - - POWER BUDGET - - -

                                           INPUT POWER   = 1.5914E-03 WATTS
                                           RADIATED POWER= 2.1278E-06 WATTS
                                           STRUCTURE LOSS= 1.5892E-03 WATTS
                                           NETWORK LOSS  = 0.0000E+00 WATTS
                                           EFFICIENCY    =   0.13 PERCENT






 ***** DATA CARD NO.  7   EN   0     0     0     0  0.00000E+00  0.00000E+00  0.00000E+00  0.00000E+00  0.00000E+00  0.00000E+00

 RUN TIME =     0.070
