1



                                 *********************************************

                                    NUMERICAL ELECTROMAGNETICS CODE (NEC-2D)

                                 *********************************************




                                     - - - - COMMENTS - - - -


                          TESTDIP1.NEC: 1GHz Half-Wave Dipole #1                                       




                                 - - - STRUCTURE SPECIFICATION - - -

                                     COORDINATES MUST BE INPUT IN
                                     METERS OR BE SCALED TO METERS
                                     BEFORE STRUCTURE INPUT IS ENDED


  WIRE                                                                               NO. OF    FIRST  LAST     TAG
  NO.        X1         Y1         Z1          X2         Y2         Z2      RADIUS   SEG.     SEG.   SEG.     NO.
     1    0.00000    0.00000   -0.07500     0.00000    0.00000    0.07500    0.00100     21        1    21       1

   TOTAL SEGMENTS USED=   21     NO. SEG. IN A SYMMETRIC CELL=   21     SYMMETRY FLAG=  0


         - MULTIPLE WIRE JUNCTIONS -
 JUNCTION    SEGMENTS  (- FOR END 1, + FOR END 2)
  NONE




                                 - - - - SEGMENTATION DATA - - - -

                                        COORDINATES IN METERS

                         I+ AND I- INDICATE THE SEGMENTS BEFORE AND AFTER I


  SEG.   COORDINATES OF SEG. CENTER     SEG.     ORIENTATION ANGLES    WIRE    CONNECTION DATA   TAG
  NO.       X         Y         Z       LENGTH     ALPHA     BETA      RADIUS    I-   I    I+    NO.
     1   0.00000   0.00000  -0.07143   0.00714   90.00000   0.00000   0.00100     0    1    2      1
     2   0.00000   0.00000  -0.06429   0.00714   90.00000   0.00000   0.00100     1    2    3      1
     3   0.00000   0.00000  -0.05714   0.00714   90.00000   0.00000   0.00100     2    3    4      1
     4   0.00000   0.00000  -0.05000   0.00714   90.00000   0.00000   0.00100     3    4    5      1
     5   0.00000   0.00000  -0.04286   0.00714   90.00000   0.00000   0.00100     4    5    6      1
     6   0.00000   0.00000  -0.03571   0.00714   90.00000   0.00000   0.00100     5    6    7      1
     7   0.00000   0.00000  -0.02857   0.00714   90.00000   0.00000   0.00100     6    7    8      1
     8   0.00000   0.00000  -0.02143   0.00714   90.00000   0.00000   0.00100     7    8    9      1
     9   0.00000   0.00000  -0.01429   0.00714   90.00000   0.00000   0.00100     8    9   10      1
    10   0.00000   0.00000  -0.00714   0.00714   90.00000   0.00000   0.00100     9   10   11      1
    11   0.00000   0.00000   0.00000   0.00714   90.00000   0.00000   0.00100    10   11   12      1
    12   0.00000   0.00000   0.00714   0.00714   90.00000   0.00000   0.00100    11   12   13      1
    13   0.00000   0.00000   0.01429   0.00714   90.00000   0.00000   0.00100    12   13   14      1
    14   0.00000   0.00000   0.02143   0.00714   90.00000   0.00000   0.00100    13   14   15      1
    15   0.00000   0.00000   0.02857   0.00714   90.00000   0.00000   0.00100    14   15   16      1
    16   0.00000   0.00000   0.03571   0.00714   90.00000   0.00000   0.00100    15   16   17      1
    17   0.00000   0.00000   0.04286   0.00714   90.00000   0.00000   0.00100    16   17   18      1
    18   0.00000   0.00000   0.05000   0.00714   90.00000   0.00000   0.00100    17   18   19      1
    19   0.00000   0.00000   0.05714   0.00714   90.00000   0.00000   0.00100    18   19   20      1
    20   0.00000   0.00000   0.06429   0.00714   90.00000   0.00000   0.00100    19   20   21      1
    21   0.00000   0.00000   0.07143   0.00714   90.00000   0.00000   0.00100    20   21    0      1






 ***** DATA CARD NO.  1   EX   0     1    11     0  1.00000E+00  0.00000E+00  0.00000E+00  0.00000E+00  0.00000E+00  0.00000E+00
 ***** DATA CARD NO.  2   FR   0    21     0     0  5.00000E+02  5.00000E+01  0.00000E+00  0.00000E+00  0.00000E+00  0.00000E+00
 ***** DATA CARD NO.  3   XQ   0     0     0     0  0.00000E+00  0.00000E+00  0.00000E+00  0.00000E+00  0.00000E+00  0.00000E+00




                                 - - - - - - FREQUENCY - - - - - -

                                    FREQUENCY= 5.0000E+02 MHZ
                                    WAVELENGTH= 5.9958E-01 METERS




                    APPROXIMATE INTEGRATION EMPLOYED FOR SEGMENTS MORE THAN   1.000 WAVELENGTHS APART



                               - - - STRUCTURE IMPEDANCE LOADING - - -

                                   THIS STRUCTURE IS NOT LOADED



                                  - - - ANTENNA ENVIRONMENT - - -

                                            FREE SPACE



                                - - - MATRIX TIMING - - -

                        FILL=    0.007 SEC.,  FACTOR=    0.000 SEC.



                                          - - - ANTENNA INPUT PARAMETERS - - -

   TAG   SEG.    VOLTAGE (VOLTS)         CURRENT (AMPS)         IMPEDANCE (OHMS)        ADMITTANCE (MHOS)      POWER
   NO.   NO.    REAL        IMAG.       REAL        IMAG.       REAL        IMAG.       REAL        IMAG.     (WATTS)
     1    11 1.00000E+00 0.00000E+00 9.29181E-05 2.61446E-03 1.35765E+01-3.82006E+02 9.29181E-05 2.61446E-03 4.64590E-05



                             - - - CURRENTS AND LOCATION - - -

                                 DISTANCES IN WAVELENGTHS


  SEG.  TAG    COORD. OF SEG. CENTER     SEG.            - - - CURRENT (AMPS) - - -
  NO.   NO.     X        Y        Z      LENGTH     REAL        IMAG.       MAG.        PHASE
     1    1   0.0000   0.0000  -0.1191  0.01191   1.4453E-05  2.3139E-04  2.3184E-04   86.426
     2    1   0.0000   0.0000  -0.1072  0.01191   3.1235E-05  5.1848E-04  5.1942E-04   86.552
     3    1   0.0000   0.0000  -0.0953  0.01191   4.4609E-05  7.6968E-04  7.7098E-04   86.683
     4    1   0.0000   0.0000  -0.0834  0.01191   5.6102E-05  1.0083E-03  1.0098E-03   86.815
     5    1   0.0000   0.0000  -0.0715  0.01191   6.5931E-05  1.2378E-03  1.2395E-03   86.951
     6    1   0.0000   0.0000  -0.0596  0.01191   7.4196E-05  1.4602E-03  1.4621E-03   87.091
     7    1   0.0000   0.0000  -0.0477  0.01191   8.0940E-05  1.6775E-03  1.6795E-03   87.238
     8    1   0.0000   0.0000  -0.0357  0.01191   8.6180E-05  1.8923E-03  1.8942E-03   87.392
     9    1   0.0000   0.0000  -0.0238  0.01191   8.9923E-05  2.1094E-03  2.1114E-03   87.559
    10    1   0.0000   0.0000  -0.0119  0.01191   9.2169E-05  2.3529E-03  2.3547E-03   87.757
    11    1   0.0000   0.0000   0.0000  0.01191   9.2918E-05  2.6145E-03  2.6161E-03   87.965
    12    1   0.0000   0.0000   0.0119  0.01191   9.2169E-05  2.3529E-03  2.3547E-03   87.757
    13    1   0.0000   0.0000   0.0238  0.01191   8.9923E-05  2.1094E-03  2.1114E-03   87.559
    14    1   0.0000   0.0000   0.0357  0.01191   8.6180E-05  1.8923E-03  1.8942E-03   87.392
    15    1   0.0000   0.0000   0.0477  0.01191   8.0940E-05  1.6775E-03  1.6795E-03   87.238
    16    1   0.0000   0.0000   0.0596  0.01191   7.4196E-05  1.4602E-03  1.4621E-03   87.091
    17    1   0.0000   0.0000   0.0715  0.01191   6.5931E-05  1.2378E-03  1.2395E-03   86.951
    18    1   0.0000   0.0000   0.0834  0.01191   5.6102E-05  1.0083E-03  1.0098E-03   86.815
    19    1   0.0000   0.0000   0.0953  0.01191   4.4609E-05  7.6968E-04  7.7098E-04   86.683
    20    1   0.0000   0.0000   0.1072  0.01191   3.1235E-05  5.1848E-04  5.1942E-04   86.552
    21    1   0.0000   0.0000   0.1191  0.01191   1.4453E-05  2.3139E-04  2.3184E-04   86.426



                                        - - - POWER BUDGET - - -

                                           INPUT POWER   = 4.6459E-05 WATTS
                                           RADIATED POWER= 4.6459E-05 WATTS
                                           STRUCTURE LOSS= 0.0000E+00 WATTS
                                           NETWORK LOSS  = 0.0000E+00 WATTS
                                           EFFICIENCY    = 100.00 PERCENT




                                 - - - - - - FREQUENCY - - - - - -

                                    FREQUENCY= 5.5000E+02 MHZ
                                    WAVELENGTH= 5.4508E-01 METERS




                    APPROXIMATE INTEGRATION EMPLOYED FOR SEGMENTS MORE THAN   1.000 WAVELENGTHS APART



                               - - - STRUCTURE IMPEDANCE LOADING - - -

                                   THIS STRUCTURE IS NOT LOADED



                                  - - - ANTENNA ENVIRONMENT - - -

                                            FREE SPACE



                                - - - MATRIX TIMING - - -

                        FILL=    0.007 SEC.,  FACTOR=    0.000 SEC.



                                          - - - ANTENNA INPUT PARAMETERS - - -

   TAG   SEG.    VOLTAGE (VOLTS)         CURRENT (AMPS)         IMPEDANCE (OHMS)        ADMITTANCE (MHOS)      POWER
   NO.   NO.    REAL        IMAG.       REAL        IMAG.       REAL        IMAG.       REAL        IMAG.     (WATTS)
     1    11 1.00000E+00 0.00000E+00 1.63974E-04 3.10153E-03 1.69985E+01-3.21523E+02 1.63974E-04 3.10153E-03 8.19870E-05



                             - - - CURRENTS AND LOCATION - - -

                                 DISTANCES IN WAVELENGTHS


  SEG.  TAG    COORD. OF SEG. CENTER     SEG.            - - - CURRENT (AMPS) - - -
  NO.   NO.     X        Y        Z      LENGTH     REAL        IMAG.       MAG.        PHASE
     1    1   0.0000   0.0000  -0.1310  0.01310   2.5191E-05  2.8452E-04  2.8563E-04   84.940
     2    1   0.0000   0.0000  -0.1179  0.01310   5.4571E-05  6.3693E-04  6.3927E-04   85.103
     3    1   0.0000   0.0000  -0.1048  0.01310   7.8105E-05  9.4419E-04  9.4742E-04   85.271
     4    1   0.0000   0.0000  -0.0917  0.01310   9.8413E-05  1.2346E-03  1.2385E-03   85.442
     5    1   0.0000   0.0000  -0.0786  0.01310   1.1584E-04  1.5119E-03  1.5164E-03   85.619
     6    1   0.0000   0.0000  -0.0655  0.01310   1.3054E-04  1.7785E-03  1.7833E-03   85.802
     7    1   0.0000   0.0000  -0.0524  0.01310   1.4256E-04  2.0360E-03  2.0409E-03   85.995
     8    1   0.0000   0.0000  -0.0393  0.01310   1.5192E-04  2.2870E-03  2.2921E-03   86.200
     9    1   0.0000   0.0000  -0.0262  0.01310   1.5861E-04  2.5369E-03  2.5418E-03   86.422
    10    1   0.0000   0.0000  -0.0131  0.01310   1.6263E-04  2.8115E-03  2.8162E-03   86.689
    11    1   0.0000   0.0000   0.0000  0.01310   1.6397E-04  3.1015E-03  3.1059E-03   86.974
    12    1   0.0000   0.0000   0.0131  0.01310   1.6263E-04  2.8115E-03  2.8162E-03   86.689
    13    1   0.0000   0.0000   0.0262  0.01310   1.5861E-04  2.5369E-03  2.5418E-03   86.422
    14    1   0.0000   0.0000   0.0393  0.01310   1.5192E-04  2.2870E-03  2.2921E-03   86.200
    15    1   0.0000   0.0000   0.0524  0.01310   1.4256E-04  2.0360E-03  2.0409E-03   85.995
    16    1   0.0000   0.0000   0.0655  0.01310   1.3054E-04  1.7785E-03  1.7833E-03   85.802
    17    1   0.0000   0.0000   0.0786  0.01310   1.1584E-04  1.5119E-03  1.5164E-03   85.619
    18    1   0.0000   0.0000   0.0917  0.01310   9.8413E-05  1.2346E-03  1.2385E-03   85.442
    19    1   0.0000   0.0000   0.1048  0.01310   7.8105E-05  9.4419E-04  9.4742E-04   85.271
    20    1   0.0000   0.0000   0.1179  0.01310   5.4571E-05  6.3693E-04  6.3927E-04   85.103
    21    1   0.0000   0.0000   0.1310  0.01310   2.5191E-05  2.8452E-04  2.8563E-04   84.940



                                        - - - POWER BUDGET - - -

                                           INPUT POWER   = 8.1987E-05 WATTS
                                           RADIATED POWER= 8.1987E-05 WATTS
                                           STRUCTURE LOSS= 0.0000E+00 WATTS
                                           NETWORK LOSS  = 0.0000E+00 WATTS
                                           EFFICIENCY    = 100.00 PERCENT




                                 - - - - - - FREQUENCY - - - - - -

                                    FREQUENCY= 6.0000E+02 MHZ
                                    WAVELENGTH= 4.9965E-01 METERS




                    APPROXIMATE INTEGRATION EMPLOYED FOR SEGMENTS MORE THAN   1.000 WAVELENGTHS APART



                               - - - STRUCTURE IMPEDANCE LOADING - - -

                                   THIS STRUCTURE IS NOT LOADED



                                  - - - ANTENNA ENVIRONMENT - - -

                                            FREE SPACE



                                - - - MATRIX TIMING - - -

                        FILL=    0.007 SEC.,  FACTOR=    0.000 SEC.



                                          - - - ANTENNA INPUT PARAMETERS - - -

   TAG   SEG.    VOLTAGE (VOLTS)         CURRENT (AMPS)         IMPEDANCE (OHMS)        ADMITTANCE (MHOS)      POWER
   NO.   NO.    REAL        IMAG.       REAL        IMAG.       REAL        IMAG.       REAL        IMAG.     (WATTS)
     1    11 1.00000E+00 0.00000E+00 2.90419E-04 3.70641E-03 2.10117E+01-2.68157E+02 2.90419E-04 3.70641E-03 1.45210E-04



                             - - - CURRENTS AND LOCATION - - -

                                 DISTANCES IN WAVELENGTHS


  SEG.  TAG    COORD. OF SEG. CENTER     SEG.            - - - CURRENT (AMPS) - - -
  NO.   NO.     X        Y        Z      LENGTH     REAL        IMAG.       MAG.        PHASE
     1    1   0.0000   0.0000  -0.1430  0.01430   4.4013E-05  3.5330E-04  3.5603E-04   82.899
     2    1   0.0000   0.0000  -0.1287  0.01430   9.5598E-05  7.9021E-04  7.9597E-04   83.102
     3    1   0.0000   0.0000  -0.1144  0.01430   1.3715E-04  1.1698E-03  1.1778E-03   83.313
     4    1   0.0000   0.0000  -0.1001  0.01430   1.7317E-04  1.5265E-03  1.5363E-03   83.528
     5    1   0.0000   0.0000  -0.0858  0.01430   2.0419E-04  1.8649E-03  1.8760E-03   83.751
     6    1   0.0000   0.0000  -0.0715  0.01430   2.3044E-04  2.1869E-03  2.1990E-03   83.985
     7    1   0.0000   0.0000  -0.0572  0.01430   2.5196E-04  2.4942E-03  2.5069E-03   84.232
     8    1   0.0000   0.0000  -0.0429  0.01430   2.6875E-04  2.7893E-03  2.8022E-03   84.497
     9    1   0.0000   0.0000  -0.0286  0.01430   2.8078E-04  3.0775E-03  3.0903E-03   84.787
    10    1   0.0000   0.0000  -0.0143  0.01430   2.8801E-04  3.3867E-03  3.3989E-03   85.139
    11    1   0.0000   0.0000   0.0000  0.01430   2.9042E-04  3.7064E-03  3.7178E-03   85.520
    12    1   0.0000   0.0000   0.0143  0.01430   2.8801E-04  3.3867E-03  3.3989E-03   85.139
    13    1   0.0000   0.0000   0.0286  0.01430   2.8078E-04  3.0775E-03  3.0903E-03   84.787
    14    1   0.0000   0.0000   0.0429  0.01430   2.6875E-04  2.7893E-03  2.8022E-03   84.497
    15    1   0.0000   0.0000   0.0572  0.01430   2.5196E-04  2.4942E-03  2.5069E-03   84.232
    16    1   0.0000   0.0000   0.0715  0.01430   2.3044E-04  2.1869E-03  2.1990E-03   83.985
    17    1   0.0000   0.0000   0.0858  0.01430   2.0419E-04  1.8649E-03  1.8760E-03   83.751
    18    1   0.0000   0.0000   0.1001  0.01430   1.7317E-04  1.5265E-03  1.5363E-03   83.528
    19    1   0.0000   0.0000   0.1144  0.01430   1.3715E-04  1.1698E-03  1.1778E-03   83.313
    20    1   0.0000   0.0000   0.1287  0.01430   9.5598E-05  7.9021E-04  7.9597E-04   83.102
    21    1   0.0000   0.0000   0.1430  0.01430   4.4013E-05  3.5330E-04  3.5603E-04   82.899



                                        - - - POWER BUDGET - - -

                                           INPUT POWER   = 1.4521E-04 WATTS
                                           RADIATED POWER= 1.4521E-04 WATTS
                                           STRUCTURE LOSS= 0.0000E+00 WATTS
                                           NETWORK LOSS  = 0.0000E+00 WATTS
                                           EFFICIENCY    = 100.00 PERCENT




                                 - - - - - - FREQUENCY - - - - - -

                                    FREQUENCY= 6.5000E+02 MHZ
                                    WAVELENGTH= 4.6122E-01 METERS




                    APPROXIMATE INTEGRATION EMPLOYED FOR SEGMENTS MORE THAN   1.000 WAVELENGTHS APART



                               - - - STRUCTURE IMPEDANCE LOADING - - -

                                   THIS STRUCTURE IS NOT LOADED



                                  - - - ANTENNA ENVIRONMENT - - -

                                            FREE SPACE



                                - - - MATRIX TIMING - - -

                        FILL=    0.007 SEC.,  FACTOR=    0.000 SEC.



                                          - - - ANTENNA INPUT PARAMETERS - - -

   TAG   SEG.    VOLTAGE (VOLTS)         CURRENT (AMPS)         IMPEDANCE (OHMS)        ADMITTANCE (MHOS)      POWER
   NO.   NO.    REAL        IMAG.       REAL        IMAG.       REAL        IMAG.       REAL        IMAG.     (WATTS)
     1    11 1.00000E+00 0.00000E+00 5.23841E-04 4.48307E-03 2.57134E+01-2.20057E+02 5.23841E-04 4.48307E-03 2.61920E-04



                             - - - CURRENTS AND LOCATION - - -

                                 DISTANCES IN WAVELENGTHS


  SEG.  TAG    COORD. OF SEG. CENTER     SEG.            - - - CURRENT (AMPS) - - -
  NO.   NO.     X        Y        Z      LENGTH     REAL        IMAG.       MAG.        PHASE
     1    1   0.0000   0.0000  -0.1549  0.01549   7.8225E-05  4.4482E-04  4.5164E-04   80.026
     2    1   0.0000   0.0000  -0.1394  0.01549   1.7040E-04  9.9414E-04  1.0086E-03   80.274
     3    1   0.0000   0.0000  -0.1239  0.01549   2.4510E-04  1.4697E-03  1.4900E-03   80.532
     4    1   0.0000   0.0000  -0.1084  0.01549   3.1014E-04  1.9143E-03  1.9392E-03   80.797
     5    1   0.0000   0.0000  -0.0929  0.01549   3.6640E-04  2.3327E-03  2.3613E-03   81.073
     6    1   0.0000   0.0000  -0.0774  0.01549   4.1416E-04  2.7269E-03  2.7581E-03   81.364
     7    1   0.0000   0.0000  -0.0619  0.01549   4.5343E-04  3.0981E-03  3.1311E-03   81.673
     8    1   0.0000   0.0000  -0.0465  0.01549   4.8413E-04  3.4484E-03  3.4823E-03   82.008
     9    1   0.0000   0.0000  -0.0310  0.01549   5.0616E-04  3.7832E-03  3.8169E-03   82.380
    10    1   0.0000   0.0000  -0.0155  0.01549   5.1941E-04  4.1320E-03  4.1645E-03   82.835
    11    1   0.0000   0.0000   0.0000  0.01549   5.2384E-04  4.4831E-03  4.5136E-03   83.335
    12    1   0.0000   0.0000   0.0155  0.01549   5.1941E-04  4.1320E-03  4.1645E-03   82.835
    13    1   0.0000   0.0000   0.0310  0.01549   5.0616E-04  3.7832E-03  3.8169E-03   82.380
    14    1   0.0000   0.0000   0.0465  0.01549   4.8413E-04  3.4484E-03  3.4823E-03   82.008
    15    1   0.0000   0.0000   0.0619  0.01549   4.5343E-04  3.0981E-03  3.1311E-03   81.673
    16    1   0.0000   0.0000   0.0774  0.01549   4.1416E-04  2.7269E-03  2.7581E-03   81.364
    17    1   0.0000   0.0000   0.0929  0.01549   3.6640E-04  2.3327E-03  2.3613E-03   81.073
    18    1   0.0000   0.0000   0.1084  0.01549   3.1014E-04  1.9143E-03  1.9392E-03   80.797
    19    1   0.0000   0.0000   0.1239  0.01549   2.4510E-04  1.4697E-03  1.4900E-03   80.532
    20    1   0.0000   0.0000   0.1394  0.01549   1.7040E-04  9.9414E-04  1.0086E-03   80.274
    21    1   0.0000   0.0000   0.1549  0.01549   7.8225E-05  4.4482E-04  4.5164E-04   80.026



                                        - - - POWER BUDGET - - -

                                           INPUT POWER   = 2.6192E-04 WATTS
                                           RADIATED POWER= 2.6192E-04 WATTS
                                           STRUCTURE LOSS= 0.0000E+00 WATTS
                                           NETWORK LOSS  = 0.0000E+00 WATTS
                                           EFFICIENCY    = 100.00 PERCENT




                                 - - - - - - FREQUENCY - - - - - -

                                    FREQUENCY= 7.0000E+02 MHZ
                                    WAVELENGTH= 4.2827E-01 METERS




                    APPROXIMATE INTEGRATION EMPLOYED FOR SEGMENTS MORE THAN   1.000 WAVELENGTHS APART



                               - - - STRUCTURE IMPEDANCE LOADING - - -

